Using: /usr/bin/time -p /synopsys/HSPICE/hspice/linux/hspice singleapprox.sp
 ****** HSPICE -- F-2011.09 32-BIT (Sep  5 2011) linux ******                   
  Copyright (C) 2011 Synopsys, Inc. All Rights Reserved.                        
  Unpublished-rights reserved under US copyright laws.
  This program is protected by law and is subject to the
  terms and conditions of the license agreement from Synopsys.
  Use of this program is your acceptance to be bound by the
  license agreement. HSPICE is the trademark of Synopsys, Inc.
  Input File: singleapprox.sp                                                   
  Command line options: singleapprox.sp
 lic: No 'setenv LM_LICENSE_FILE' in current environment' 
 lic:  
 lic: FLEXlm: v10.8 
 lic: USER:   watkins              HOSTNAME: engr-e132-d10 
 lic: HOSTID: 002564bd04da         PID:      2308 
 lic: Using FLEXlm license file: 
 lic: 28000@131.230.191.194 
 lic: Checkout 1 hspice 
 lic: License/Maintenance for hspice will expire on 30-dec-2015/2015.06 
 lic: 1(in_use)/50(total) FLOATING license(s) on SERVER 131.230.191.194 
 lic:   
 Init: read install configuration file: /synopsys/HSPICE/hspice/meta.cfg
  **warning** option measfile is disabled due to no .alter in the netlist
1****** HSPICE -- F-2011.09 32-BIT (Sep  5 2011) linux ******                   
 ******  
 

  ******  circuit name directory
 circuit number to circuit name directory
   number circuitname                     definition         multiplier
        0 main circuit
        1 xand1.                          nand2inp           1.00 
        2 xand2.                          nand2inp           1.00 
        3 xand8.                          nand2inp           1.00 
        4 xand9.                          nand2inp           1.00 
1****** HSPICE -- F-2011.09 32-BIT (Sep  5 2011) linux ******                   
 ******  
 

  ******  mos   model parameters tnom=  25.000 temp=  25.000 *****
 Model Name: cmosn  
 BSIM4 Model (Level 54)
    MOBMOD = 0
    BINUNIT = 1
    PARAMCHK = 1
    CAPMOD = 2
    DIOMOD = 1
    RDSMOD = 0
    TRNQSMOD = 0
    ACNQSMOD = 0
    RBODYMOD = 1
    RGATEMOD = 1
    PERMOD = 1
    GEOMOD = 1
    RGEOMOD = 0
    FNOIMOD = 1
    TNOIMOD = 0
    IGCMOD = 1
    IGBMOD = 1
    STIMOD = 0
    VERSION =      4 
    TOXREF = 1.15e-09 
    TOXE = 1.15e-09 
    TOXP =  9e-10 
    TOXM = 1.15e-09 
    DTOX = 2.5e-10 
    EPSROX =    3.9 
    CDSC =      0 
    CDSCB =      0 
    CDSCD =      0 
    CIT =      0 
    NFACTOR =  2.508 
    XJ =  1e-08 
    VSAT = 2.1e+05 
    A0 =      1 
    AGS =      0 
    A1 =      0 
    A2 =      1 
    AT = 3.3e+04 
    KETA =   0.04 
    NSUB =  6e+16 
    NDEP = 4.12e+18 
    NSD =  2e+20 
    NGATE =  1e+23 
    GAMMA1 =      0 
    GAMMA2 =      0 
    VBX =      0 
    VBM =     -3 
    XT = 1.55e-07 
    K1 =    0.4 
    KT1 =  -0.11 
    KT1L =      0 
    KT2 =  0.022 
    K2 =      0 
    K3 =      0 
    K3B =      0 
    LPE0 =      0 
    LPEB =      0 
    DVTP0 =  1e-11 
    DVTP1 =    0.1 
    W0 = 2.5e-06 
    DVT0 =      1 
    DVT1 =      2 
    DVT2 =      0 
    DVT0W =      0 
    DVT1W =      0 
    DVT2W =      0 
    DROUT =    0.5 
    DSUB =    0.1 
    VTH0 =  0.494 
    EU =   1.67 
    UA =  6e-10 
    UA1 = 4.31e-09 
    UB = 1.2e-18 
    UB1 = 7.61e-18 
    UC =      0 
    UC1 = -5.6e-11 
    U0 =   0.05 
    UTE =   -1.5 
    VOFF =  -0.13 
    VOFFL =      0 
    MINV =   0.05 
    FPROUT =    0.2 
    PDITS =   0.01 
    PDITSD =   0.23 
    PDITSL = 2.3e+06 
    DELTA =   0.01 
    RDSW =    150 
    RDSWMIN =      0 
    RDWMIN =      0 
    RSWMIN =      0 
    RDW =     75 
    RSW =     75 
    PRWG =      0 
    PRWB =      0 
    PRT =      0 
    ETA0 = 0.0048 
    ETAB =      0 
    PCLM =   0.02 
    PDIBLC1 =  0.001 
    PDIBLC2 =  0.001 
    PDIBLCB = -0.005 
    PSCBE1 = 8.14e+08 
    PSCBE2 =  1e-07 
    PVAG =  1e-20 
    WR =      1 
    DWG =      0 
    DWB =      0 
    XW =      0 
    XWREF =      0 
    XL = -1.4e-08 
    XLREF = -1.4e-08 
    B0 =      0 
    B1 =      0 
    ALPHA0 =  0.074 
    ALPHA1 =  0.005 
    AGIDL = 0.0002 
    BGIDL = 2.1e+09 
    CGIDL = 0.0002 
    PHIN =      0 
    EGIDL =    0.8 
    AIGC = 0.02001 
    BIGC = 0.002743 
    CIGC =  0.002 
    AIGSD = 0.02001 
    BIGSD = 0.002743 
    CIGSD =  0.002 
    AIGBACC =  0.012 
    BIGBACC = 0.0028 
    CIGBACC =  0.002 
    AIGBINV =  0.014 
    BIGBINV =  0.004 
    CIGBINV =  0.004 
    NIGC =      1 
    NIGBINV =      3 
    NIGBACC =      1 
    NTOX =      1 
    EIGBINV =    1.1 
    PIGCD =      1 
    POXEDGE =      1 
    XRCRG1 =     12 
    TNOIA =    1.5 
    TNOIB =    3.5 
    NTNOI =      1 
    XRCRG2 =      5 
    BETA0 =     30 
    IJTHDFWD =   0.01 
    IJTHSFWD =   0.01 
    IJTHDREV =  0.001 
    IJTHSREV =  0.001 
    XJBVD =      1 
    XJBVS =      1 
    BVD =     10 
    BVS =     10 
    VFB =  -0.55 
    GBMIN =  1e-10 
    RBDB =     15 
    RBPB =      5 
    RBSB =     15 
    RBPS =     15 
    RBPD =     15 
    CGSL = 2.653e-10 
    CGDL = 2.653e-10 
    CKAPPAS =   0.03 
    CKAPPAD =   0.03 
    CF = 1.287e-10 
    CLC =  1e-07 
    CLE =    0.6 
    DWC =  5e-09 
    DLC = 2.7e-09 
    DLCIG = 2.7e-09 
    DWJ =      0 
    VFBCV =     -1 
    ACDE =      1 
    MOIN =     15 
    NOFF =    0.9 
    VOFFCV =   0.02 
    DMCG =      0 
    DMCI =      0 
    DMDG =      0 
    DMCGT =      0 
    XGW =      0 
    XGL =      0 
    RSHG =    0.4 
    NGCON =      1 
    TCJ =  0.001 
    TPB =  0.005 
    TCJSW =  0.001 
    TPBSW =  0.005 
    TCJSWG =  0.001 
    TPBSWG =  0.005 
    SK0 =      0 
    SK1 =      0 
    SK2 =      0 
    SL =  2e-06 
    SW =  2e-06 
    K =      0 
    TNOM =  300.1 
    CGSO = 8.5e-11 
    CGDO = 8.5e-11 
    CGBO = 2.56e-11 
    XPART =      0 
    RSH =      5 
    JSS = 0.0001 
    JSWS =  1e-11 
    JSWGS =  1e-10 
    PBS =      1 
    MJS =    0.5 
    PBSWS =      1 
    MJSWS =   0.33 
    CJS = 0.0005 
    CJSWS =  5e-10 
    NJS =      1 
    PBSWGS =      1 
    MJSWGS =   0.33 
    CJSWGS =  3e-10 
    XTIS =      3 
    JSD = 0.0001 
    JSWD =  1e-11 
    JSWGD =  1e-10 
    PBD =      1 
    MJD =    0.5 
    PBSWD =      1 
    MJSWD =   0.33 
    CJD = 0.0005 
    CJSWD =  5e-10 
    NJD =      1 
    PBSWGD =      1 
    MJSWGD =   0.33 
    CJSWGD =  5e-10 
    XTID =      3 
    LMLT =      1 
    WMLT =      1 
    LINT = 2.7e-09 
    LL =      0 
    LLC =      0 
    LLN =      1 
    LW =      0 
    LWC =      0 
    LWN =      1 
    LWL =      0 
    LWLC =      0 
    LMIN =      0 
    LMAX =      1 
    WINT =  5e-09 
    WL =      0 
    WLC =      0 
    WLN =      1 
    WW =      0 
    WWC =      0 
    WWN =      1 
    WWL =      0 
    WWLC =      0 
    WMIN =      0 
    WMAX =      1 
    NOIA = 6.25e+41 
    NOIB = 3.125e+26 
    NOIC = 8.75e+09 
    EM = 4.1e+07 
    EF =      1 
    AF =      1 
    KF =      0 
    TRS =      0 
    TRD =      0 
 Model Name: cmosp  
 BSIM4 Model (Level 54)
    MOBMOD = 0
    BINUNIT = 1
    PARAMCHK = 1
    CAPMOD = 2
    DIOMOD = 1
    RDSMOD = 0
    TRNQSMOD = 0
    ACNQSMOD = 0
    RBODYMOD = 1
    RGATEMOD = 1
    PERMOD = 1
    GEOMOD = 1
    RGEOMOD = 0
    FNOIMOD = 1
    TNOIMOD = 0
    IGCMOD = 1
    IGBMOD = 1
    STIMOD = 0
    VERSION =      4 
    TOXREF = 1.2e-09 
    TOXE = 1.2e-09 
    TOXP =  9e-10 
    TOXM = 1.2e-09 
    DTOX =  3e-10 
    EPSROX =    3.9 
    CDSC =      0 
    CDSCB =      0 
    CDSCD =      0 
    CIT =      0 
    NFACTOR =    2.1 
    XJ =  1e-08 
    VSAT = 1.8e+05 
    A0 =      1 
    AGS =  1e-20 
    A1 =      0 
    A2 =      1 
    AT = 3.3e+04 
    KETA = -0.047 
    NSUB =  6e+16 
    NDEP = 3.07e+18 
    NSD =  2e+20 
    NGATE =  1e+23 
    GAMMA1 =      0 
    GAMMA2 =      0 
    VBX =      0 
    VBM =     -3 
    XT = 1.55e-07 
    K1 =    0.4 
    KT1 =  -0.11 
    KT1L =      0 
    KT2 =  0.022 
    K2 =  -0.01 
    K3 =      0 
    K3B =      0 
    LPE0 =      0 
    LPEB =      0 
    DVTP0 =  1e-11 
    DVTP1 =   0.05 
    W0 = 2.5e-06 
    DVT0 =      1 
    DVT1 =      2 
    DVT2 = -0.032 
    DVT0W =      0 
    DVT1W =      0 
    DVT2W =      0 
    DROUT =   0.56 
    DSUB =    0.1 
    VTH0 = -0.4916 
    EU =      1 
    UA =  2e-09 
    UA1 = 4.31e-09 
    UB =  5e-19 
    UB1 = 7.61e-18 
    UC =      0 
    UC1 = -5.6e-11 
    U0 =  0.014 
    UTE =   -1.5 
    VOFF = -0.126 
    VOFFL =      0 
    MINV =   0.05 
    FPROUT =    0.2 
    PDITS =   0.08 
    PDITSD =   0.23 
    PDITSL = 2.3e+06 
    DELTA =   0.01 
    RDSW =    150 
    RDSWMIN =      0 
    RDWMIN =      0 
    RSWMIN =      0 
    RDW =     75 
    RSW =     75 
    PRWG =      0 
    PRWB =      0 
    PRT =      0 
    ETA0 = 0.0048 
    ETAB =      0 
    PCLM =   0.12 
    PDIBLC1 =  0.001 
    PDIBLC2 =  0.001 
    PDIBLCB = 3.4e-08 
    PSCBE1 = 8.14e+08 
    PSCBE2 = 9.58e-07 
    PVAG =  1e-20 
    WR =      1 
    DWG =      0 
    DWB =      0 
    XW =      0 
    XWREF =      0 
    XL = -1.4e-08 
    XLREF = -1.4e-08 
    B0 =      0 
    B1 =      0 
    ALPHA0 =  0.074 
    ALPHA1 =  0.005 
    AGIDL = 0.0002 
    BGIDL = 2.1e+09 
    CGIDL = 0.0002 
    PHIN =      0 
    EGIDL =    0.8 
    AIGC = 0.02001 
    BIGC = 0.002743 
    CIGC =  0.002 
    AIGSD = 0.02001 
    BIGSD = 0.002743 
    CIGSD =  0.002 
    AIGBACC =  0.012 
    BIGBACC = 0.0028 
    CIGBACC =  0.002 
    AIGBINV =  0.014 
    BIGBINV =  0.004 
    CIGBINV =  0.004 
    NIGC =      1 
    NIGBINV =      3 
    NIGBACC =      1 
    NTOX =      1 
    EIGBINV =    1.1 
    PIGCD =      1 
    POXEDGE =      1 
    XRCRG1 =     12 
    TNOIA =    1.5 
    TNOIB =    3.5 
    NTNOI =      1 
    XRCRG2 =      5 
    BETA0 =     30 
    IJTHDFWD =   0.01 
    IJTHSFWD =   0.01 
    IJTHDREV =  0.001 
    IJTHSREV =  0.001 
    XJBVD =      1 
    XJBVS =      1 
    BVD =     10 
    BVS =     10 
    VFB =   0.55 
    GBMIN =  1e-10 
    RBDB =     15 
    RBPB =      5 
    RBSB =     15 
    RBPS =     15 
    RBPD =     15 
    CGSL = 2.653e-10 
    CGDL = 2.653e-10 
    CKAPPAS =   0.03 
    CKAPPAD =   0.03 
    CF = 1.278e-10 
    CLC =  1e-07 
    CLE =    0.6 
    DWC =  5e-09 
    DLC = 2.7e-09 
    DLCIG = 2.7e-09 
    DWJ =      0 
    VFBCV =     -1 
    ACDE =      1 
    MOIN =     15 
    NOFF =    0.9 
    VOFFCV =   0.02 
    DMCG =      0 
    DMCI =      0 
    DMDG =      0 
    DMCGT =      0 
    XGW =      0 
    XGL =      0 
    RSHG =    0.4 
    NGCON =      1 
    TCJ =  0.001 
    TPB =  0.005 
    TCJSW =  0.001 
    TPBSW =  0.005 
    TCJSWG =  0.001 
    TPBSWG =  0.005 
    SK0 =      0 
    SK1 =      0 
    SK2 =      0 
    SL =  2e-06 
    SW =  2e-06 
    K =      0 
    TNOM =  300.1 
    CGSO = 8.5e-11 
    CGDO = 8.5e-11 
    CGBO = 2.56e-11 
    XPART =      0 
    RSH =      5 
    JSS = 0.0001 
    JSWS =  1e-11 
    JSWGS =  1e-10 
    PBS =      1 
    MJS =    0.5 
    PBSWS =      1 
    MJSWS =   0.33 
    CJS = 0.0005 
    CJSWS =  5e-10 
    NJS =      1 
    PBSWGS =      1 
    MJSWGS =   0.33 
    CJSWGS =  3e-10 
    XTIS =      3 
    JSD = 0.0001 
    JSWD =  1e-11 
    JSWGD =  1e-10 
    PBD =      1 
    MJD =    0.5 
    PBSWD =      1 
    MJSWD =   0.33 
    CJD = 0.0005 
    CJSWD =  5e-10 
    NJD =      1 
    PBSWGD =      1 
    MJSWGD =   0.33 
    CJSWGD =  5e-10 
    XTID =      3 
    LMLT =      1 
    WMLT =      1 
    LINT = 2.7e-09 
    LL =      0 
    LLC =      0 
    LLN =      1 
    LW =      0 
    LWC =      0 
    LWN =      1 
    LWL =      0 
    LWLC =      0 
    LMIN =      0 
    LMAX =      1 
    WINT =  5e-09 
    WL =      0 
    WLC =      0 
    WLN =      1 
    WW =      0 
    WWC =      0 
    WWN =      1 
    WWL =      0 
    WWLC =      0 
    WMIN =      0 
    WMAX =      1 
    NOIA = 6.188e+40 
    NOIB = 1.5e+25 
    NOIC = 8.75e+09 
    EM = 4.1e+07 
    EF =      1 
    AF =      1 
    KF =      0 
    TRS =      0 
    TRD =      0 
  **info** (singleapprox.sp:21) DC voltage reset to initial transient source value              in source        0:iup                 new dc=  0.0000D+00
 **warning**(cmosn:mn1)Warning:  Acde = 0.263957 may be too small in BSIM4 model with w=4e-08 l=3.2e-08.
  
      
 **info** set option symb=1 internally to help for convergence.
 *****************************************************************
 ******  option summary
 ******
 runlvl  = 3         bypass  = 2         
  Opening plot unit= 15
 file=singleapprox.pa0                                                         

1****** HSPICE -- F-2011.09 32-BIT (Sep  5 2011) linux ******                   
 ******  
 

  ******  operating point information tnom=  25.000 temp=  25.000 *****
 ***** operating point status is voltage   simulation time is     0.     
    node    =voltage      node    =voltage      node    =voltage

 +0:a       =   1.0500  0:b       =   1.0500  0:c       =   1.0500 
 +0:cn1     = 1.564e-04 0:cn2     = 7.831e-05 0:p10     = 1.044e-04
 +0:p11     =   1.0500  0:p12     =   1.0500  0:p13     = 2.342e-04
 +0:p9      = 1.044e-04 0:vdd     =   1.0500  1:cn1     = 5.234e-05
 +2:cn1     =   0.7873  3:cn1     = 5.234e-05 4:cn1     =   0.7873 


 maximum nodal capacitance=   2.167E-15         on node     0:vdd             

    nodal  capacitance table 

    node    =    cap      node    =    cap      node    =    cap

 +0:a       = 9.124e-17 0:b       = 4.484e-16 0:c       = 9.124e-17
 +0:cn1     = 9.617e-17 0:cn2     = 9.617e-17 0:p10     = 2.637e-16
 +0:p11     = 2.922e-16 0:p12     = 2.922e-16 0:p13     = 1.948e-16
 +0:p9      = 2.637e-16 0:vdd     = 2.167e-15 1:cn1     = 9.617e-17
 +2:cn1     = 6.391e-17 3:cn1     = 9.617e-17 4:cn1     = 6.391e-17

 
 ******  
 

  ******  transient analysis tnom=  25.000 temp=  25.000 *****

   *** data name = setsrce  1st sweep ***

x

        time    voltage      voltage    
                    cn1          cn2    
    0.          1.564e-04    7.831e-05  
  4.0000e-12    1.564e-04    7.831e-05  
  8.0000e-12    1.564e-04    7.831e-05  
  1.2000e-11    1.564e-04    7.831e-05  
  1.6000e-11    1.564e-04    7.831e-05  
  2.0000e-11    1.564e-04    7.831e-05  
  2.4000e-11    1.564e-04    7.831e-05  
  2.8000e-11    1.564e-04    7.831e-05  
  3.2000e-11    1.564e-04    7.831e-05  
  3.6000e-11    1.564e-04    7.831e-05  
  4.0000e-11    1.564e-04    7.831e-05  
  4.4000e-11    1.564e-04    7.831e-05  
  4.8000e-11    1.564e-04    7.831e-05  
  5.2000e-11    1.564e-04    7.831e-05  
  5.6000e-11    7.674e-04    3.623e-04  
  6.0000e-11    4.718e-04    2.516e-04  
  6.4000e-11    2.111e-04    1.169e-04  
  6.8000e-11    1.207e-04    6.835e-05  
  7.2000e-11    1.232e-04    6.427e-05  
  7.6000e-11   -1.288e-04   -4.083e-05  
  8.0000e-11   -1.461e-03   -6.693e-04  
  8.4000e-11   -3.329e-03   -1.610e-03  
  8.8000e-11   -5.353e-03   -2.610e-03  
  9.2000e-11   -7.803e-03   -3.851e-03  
  9.6000e-11   -6.655e-03   -3.477e-03  
  1.0000e-10    1.177e-02    4.861e-03  
  1.0400e-10    4.293e-02    2.067e-02  
  1.0800e-10    3.688e-02    1.894e-02  
  1.1200e-10    2.857e-02    1.448e-02  
  1.1600e-10    2.443e-02    1.230e-02  
  1.2000e-10    1.965e-02    9.999e-03  
  1.2400e-10    1.444e-02    7.342e-03  
  1.2800e-10    1.253e-02    6.285e-03  
  1.3200e-10    1.389e-02    6.827e-03  
  1.3600e-10    1.957e-02    9.477e-03  
  1.4000e-10    3.092e-02    1.486e-02  
  1.4400e-10    4.960e-02    2.379e-02  
  1.4800e-10    7.546e-02    3.618e-02  
  1.5200e-10      0.1048     5.049e-02  
  1.5600e-10      0.1327     6.371e-02  
  1.6000e-10      0.1571     7.527e-02  
  1.6400e-10      0.1445     7.213e-02  
  1.6800e-10    7.166e-02    3.647e-02  
  1.7200e-10    2.345e-02    9.922e-03  
  1.7600e-10    2.992e-02    4.747e-03  
  1.8000e-10      0.2942    -4.560e-04  
  1.8400e-10      0.5424    -2.637e-03  
  1.8800e-10      0.5909    -1.347e-03  
  1.9200e-10      0.6119    -4.693e-04  
  1.9600e-10      0.6256    -1.687e-04  
  2.0000e-10      0.6363    -5.363e-05  
  2.0400e-10      0.6444    -3.394e-05  
  2.0800e-10      0.6509    -2.986e-05  
  2.1200e-10      0.6564    -2.909e-05  
  2.1600e-10      0.6612    -2.216e-05  
  2.2000e-10      0.6653    -1.939e-05  
  2.2400e-10      0.6690    -1.913e-05  
  2.2800e-10      0.6722    -2.057e-05  
  2.3200e-10      0.6752    -2.217e-05  
  2.3600e-10      0.6779    -2.398e-05  
  2.4000e-10      0.6804    -2.601e-05  
  2.4400e-10      0.6826    -2.204e-05  
  2.4800e-10      0.6848    -3.307e-05  
  2.5200e-10      0.6867    -3.449e-05  
  2.5600e-10      0.6885    -4.109e-05  
  2.6000e-10      0.6902    -4.487e-05  
  2.6400e-10      0.6918    -4.717e-05  
  2.6800e-10      0.6934    -4.949e-05  
  2.7200e-10      0.6949    -4.193e-05  
  2.7600e-10      0.6966     7.233e-06  
  2.8000e-10      0.6992     2.415e-04  
  2.8400e-10      0.7038     6.044e-04  
  2.8800e-10      0.7108     1.073e-03  
  2.9200e-10      0.7200     1.918e-03  
  2.9600e-10      0.7204     5.320e-03  
  3.0000e-10      0.6172     2.372e-02  
  3.0400e-10      0.4509     6.204e-02  
  3.0800e-10      0.3521       0.1059   
  3.1200e-10      0.2768       0.1194   
  3.1600e-10      0.1681     8.445e-02  
  3.2000e-10    7.716e-02    4.073e-02  
  3.2400e-10    3.470e-02    1.857e-02  
  3.2800e-10    1.478e-02    7.952e-03  
  3.3200e-10    6.401e-03    3.449e-03  
  3.3600e-10    2.928e-03    1.577e-03  
  3.4000e-10    1.394e-03    7.455e-04  
  3.4400e-10    7.211e-04    3.845e-04  
  3.4800e-10    4.374e-04    2.358e-04  
  3.5200e-10    3.088e-04    1.539e-04  
  3.5600e-10    2.531e-04    1.276e-04  
  3.6000e-10    2.065e-04    1.100e-04  
  3.6400e-10    1.942e-04    9.872e-05  
  3.6800e-10    1.849e-04    9.471e-05  
  3.7200e-10    1.772e-04    8.934e-05  
  3.7600e-10    1.723e-04    8.747e-05  
  3.8000e-10    1.695e-04    8.607e-05  
  3.8400e-10    1.683e-04    8.537e-05  
  3.8800e-10    1.676e-04    8.490e-05  
  3.9200e-10    1.651e-04    8.315e-05  
  3.9600e-10    1.650e-04    8.317e-05  
  4.0000e-10    1.635e-04    8.225e-05  
  4.0400e-10    1.636e-04    8.243e-05  
  4.0800e-10    1.628e-04    8.193e-05  
  4.1200e-10    1.607e-04    8.103e-05  
  4.1600e-10    1.594e-04    8.016e-05  
  4.2000e-10    1.611e-04    8.104e-05  
  4.2400e-10    1.605e-04    8.063e-05  
  4.2800e-10    1.608e-04    8.081e-05  
  4.3200e-10    1.605e-04    8.051e-05  
  4.3600e-10    1.607e-04    8.077e-05  
  4.4000e-10    1.602e-04    8.044e-05  
  4.4400e-10    1.601e-04    8.040e-05  
  4.4800e-10    1.598e-04    8.022e-05  
  4.5200e-10    1.597e-04    8.016e-05  
  4.5600e-10    1.602e-04    8.075e-05  
  4.6000e-10    1.585e-04    7.938e-05  
  4.6400e-10    1.593e-04    8.001e-05  
  4.6800e-10    1.588e-04    7.967e-05  
  4.7200e-10    1.589e-04    7.975e-05  
  4.7600e-10    1.588e-04    7.964e-05  
  4.8000e-10    1.586e-04    7.965e-05  
  4.8400e-10    1.586e-04    7.954e-05  
  4.8800e-10    1.585e-04    7.950e-05  
  4.9200e-10    1.584e-04    7.944e-05  
  4.9600e-10    1.594e-04    8.018e-05  
  5.0000e-10    1.575e-04    7.881e-05  
  5.0400e-10    1.583e-04    7.945e-05  
  5.0800e-10    1.579e-04    7.914e-05  
  5.1200e-10    1.580e-04    7.925e-05  
  5.1600e-10    1.579e-04    7.916e-05  
  5.2000e-10    1.579e-04    7.916e-05  
  5.2400e-10    1.578e-04    7.911e-05  
  5.2800e-10    1.579e-04    7.913e-05  
  5.3200e-10    1.576e-04    7.901e-05  
  5.3600e-10    1.577e-04    7.905e-05  
  5.4000e-10    1.576e-04    7.898e-05  
  5.4400e-10    1.576e-04    7.896e-05  
  5.4800e-10    1.574e-04    7.891e-05  
  5.5200e-10    1.576e-04    7.897e-05  
  5.5600e-10    1.573e-04    7.884e-05  
  5.6000e-10    1.575e-04    7.891e-05  
  5.6400e-10    1.573e-04    7.884e-05  
  5.6800e-10    1.575e-04    7.891e-05  
  5.7200e-10    1.583e-04    7.959e-05  
  5.7600e-10    1.566e-04    7.829e-05  
